!Created with skrf (http://scikit-rf.org).
# GHz S RI R 50.0 
!freq ReS11 ImS11
75.0 -2.9757708386146 2.3052931390358493
75.35 -0.8573145417367096 -1.5413016397723134
75.7 -2.648376543070751 0.8288109817573621
76.05 1.2660095761632841 1.26473713624622
76.4 -1.9583079537425088 -1.1298061187470119
76.75 -0.4963329951593327 0.8748988093825716
77.1 2.667701431549312 2.170555164671335
77.45 -2.0849433798297117 2.3532595946487236
77.8 1.1199427665613522 1.9568660624173928
78.15 -0.967687647266462 1.353843435951619
78.5 -0.2553194568296133 -2.159544258455905
78.85 -0.8082365913700695 -1.6274984610146495
79.2 1.2536589940097191 1.1020779189894265
79.55 -1.0770508361614883 1.1553212397166088
79.9 2.2841753204781945 -2.174589633024378
80.25 -2.3420830596843016 -2.596693635220337
80.6 2.611804660147339 -1.9842621703803145
80.95 -2.20707829671787 -1.967599530090218
81.3 -1.507572317092662 0.11290871887310505
81.65 2.276435067018887 1.5648400587076285
82.0 -0.9418991260875398 -2.3412722555883354
82.35 -0.6626266093786002 -0.6028801485478761
82.7 1.585332672267229 -1.6445018388636814
83.05 -2.403455991664376 -2.1996689530613525
83.4 -1.745180436302786 -0.2212348200156884
83.75 2.706093073555847 -1.0344950261550048
84.1 0.9927063589248672 -2.4000989944986495
84.45 -2.8476428666127562 -1.3982035518996416
84.8 -1.608964323097886 -1.3564837509114425
85.15 2.8470013741221933 2.384170895417135
85.5 -0.23884460362191096 1.5101116608482665
85.85 1.519572378385301 2.0271930402629996
86.2 2.1585197666834466 0.07772378323157758
86.55 2.284782452416251 -2.228461127386181
86.9 2.590889709463224 -0.20939018923460617
87.25 -1.2738017985936063 2.5833834272235396
87.6 -2.0525167160465134 0.793933037112704
87.95 -2.0276921433144466 -0.084340393757804
88.3 2.7671807665381376 0.4103158173284518
88.65 1.7842454359311901 -1.1894450880298426
89.0 -0.3728329149423626 2.862808284614957
89.35 1.7110554441798906 2.7506051451259665
89.7 1.7618577264662982 2.0194289493024957
90.05 -2.132562267731162 -0.9461318057294412
90.4 0.8990884458956936 -1.1066796468632414
90.75 1.9077652204648372 2.1952907655979037
91.1 -2.629777385127439 -0.9640729808218216
91.45 1.346664739836695 -0.37552936966764316
91.8 -0.7233969199828096 -1.239299486077273
92.15 -1.9411164544634798 -2.0600148049476426
92.5 -2.4042071388230464 -2.8884690063485365
92.85 2.085847743802458 -2.857417953994913
93.2 0.11189664290761159 2.681989461452991
93.55 -0.7795144882267071 -0.23860422970320205
93.9 -2.318550095508993 2.0011802909489336
94.25 -1.6330760954409058 0.9320384415763641
94.6 1.8826806177220998 -2.3238506003980532
94.95 -0.3335086927540485 -0.45354501990893814
95.3 2.1982896664012577 0.38575186291384966
95.65 -1.180403708151916 1.43986908670593
96.0 1.0796680999155017 -0.8619773906596864
96.35 2.871065231062903 0.6384029108623601
96.7 2.147035651100057 -0.827959730004264
97.05 -0.9265040848710533 0.41144750202334346
97.4 2.4136728711932323 1.5974694060013634
97.75 -0.2792701674676581 -0.21798984332268345
98.1 -0.3573044943098622 -0.4356302951814248
98.45 -2.175262570358714 -1.6988383739990351
98.8 -1.3963547249524957 -2.5992270534894786
99.15 -0.6577125864059397 0.2871863792958125
99.5 -1.8370925016436364 1.7206317853614272
99.85 -0.17901144539144154 -2.037936538525707
100.2 2.693049911751283 -1.898732004292022
100.55 2.068627184062229 0.591009192635525
100.9 -1.3198689572507813 -2.7826092512959004
101.25 2.9530860935002003 2.0266454030932373
101.6 -2.410469862281044 -0.9646499901087555
101.95 -2.1248008635654214 -1.6234355987789897
102.3 1.9093177348310153 1.0958542264604572
102.65 2.669666890227326 -1.436515121534078
103.0 -0.9543559323607618 0.948971661666786
103.35 -1.2110009049622623 -0.6815421377027906
103.7 -2.6444740924210883 2.0688885697410933
104.05 2.002180869329722 2.1440996699808776
104.4 0.26684280158939666 0.11197834035872645
104.75 -0.036493337714643914 2.9564284163180385
105.1 -0.16477770893695576 0.39974918868295206
105.45 2.4076795219373306 1.3188832327026974
105.8 -2.4118182565006867 2.6919369056607407
106.15 -0.7634400554398808 -1.9534601630447568
106.5 -0.2851916909785017 1.5777348604655317
106.85 -2.3304842914638906 1.7869695783550799
107.2 2.5527611515808464 1.6706849794776752
107.55 2.6927197717758355 2.615157152174125
107.9 2.1337074434596337 1.0113267054123767
108.25 0.03103301652423318 -2.7822124008676155
108.6 2.905021116158533 2.649418241685116
108.95 -1.7445344097435336 0.9597432515112314
109.3 -1.4333545966274504 1.8878193916609156
109.65 -1.677490038367796 -0.32171897595309007
110.0 -2.9288408503976098 -1.3412385592532166
