!Created with skrf (http://scikit-rf.org).
# GHz S RI R 50.0 
!freq ReS11 ImS11
75.0 -1.8276693202070655 -3.291582059037091
75.35 -1.05430474590064 1.98646724622055
75.7 -1.4834055429833786 3.578333996945555
76.05 3.130515274718097 -0.3257020073267469
76.4 -1.4230184166920044 1.6288802818574846
76.75 -0.19006594003019117 -0.1878414172702021
77.1 1.4026721796967996 -0.46043941508970665
77.45 0.6381439211700322 -1.498929968052897
77.8 -2.5659911556665334 -2.89249800840744
78.15 3.6123421477375848 0.4163741932261482
78.5 -1.9414954092198862 -2.823180001450984
78.85 2.4068901271825984 0.1391523497104803
79.2 -1.9193619488382243 -3.9216773726595235
79.55 -3.0929658998305296 -0.8674363102415734
79.9 -2.0801224156385363 1.2085598479231594
80.25 -3.088294162476049 -3.7980447951097274
80.6 -2.3473746725340456 0.11819349741149399
80.95 0.5589058772078577 3.937755401089089
81.3 1.6486743771892343 -3.4780848423877266
81.65 -0.13708618270596595 -3.7478635551104054
82.0 1.907610034176086 1.2892257122788573
82.35 -1.6297443154076738 0.05657984031039742
82.7 3.6503369137518327 1.8093309801729118
83.05 1.3740800634983774 0.5185929666330269
83.4 -0.5721146402430612 1.5638426462435122
83.75 2.898090761133867 2.8121573342082753
84.1 -2.513687990490454 -3.959548876716749
84.45 -1.3494187560617812 -1.387021443650732
84.8 1.629634837481202 1.1428705328403579
85.15 1.8286922254574556 2.535718225809445
85.5 3.514997194459453 -2.01592710161069
85.85 -2.94291024002262 -2.1691510545455834
86.2 -3.0801206698472345 -2.1255931313972303
86.55 1.9467911478901563 1.8153780823349157
86.9 0.07770335748874402 -2.464088405453558
87.25 -1.3986756320810994 1.6580779685867855
87.6 -3.0308347826223807 -3.2767493054392105
87.95 -2.123324820055302 -3.4268035133549333
88.3 -2.100439963288304 2.299271994591641
88.65 -1.8204827200923255 0.5575482966562619
89.0 2.440943554364245 3.4924744985728973
89.35 1.4171791881214704 1.102032475387884
89.7 -2.9053433861088447 1.2206629399970508
90.05 1.1073336876200202 3.4769376361973885
90.4 2.5454995853713775 -2.1529867978347363
90.75 -2.1761867104999943 -0.8280876423182866
91.1 -3.4865149450669906 3.987994931112219
91.45 3.659327023577016 -1.2795006880826936
91.8 2.8953600888989435 -3.696225351226521
92.15 -1.0271022515336101 -0.7267466510618217
92.5 0.2954373476884644 0.6391006959497574
92.85 2.52080894387203 3.6062043161207926
93.2 0.1891677148387032 -0.4979272708367519
93.55 -0.5218074272592714 -0.4124815648850788
93.9 0.16837106761609455 -2.759556534235683
94.25 -1.155754526450803 0.47509450807623566
94.6 -1.4536081808041565 -0.1711726110948364
94.95 1.9648324514009312 0.3535935098441749
95.3 -2.6113815374309057 3.5209750400573956
95.65 -1.865262649852423 -1.1675118870526209
96.0 2.623312197012698 -2.901848903064904
96.35 -0.11426914778244157 0.9370183377429955
96.7 1.4889842682381236 3.2748103002651225
97.05 -0.15521583965615626 3.5357013722882815
97.4 -3.8038651651185518 2.41181829664733
97.75 -0.5255136518821777 -1.9661688056131101
98.1 -2.5803017346673682 3.499837189637934
98.45 0.9860895144043438 -1.9533375817355818
98.8 -0.8686211886062942 2.1771438698826824
99.15 -3.7727590155377495 -0.7319079763855569
99.5 -1.9110727221191146 -3.256578527049034
99.85 -1.3480305371702483 -2.003943568382244
100.2 -3.647058309241289 -2.071635936997689
100.55 -2.6353454912798373 3.1216077544892658
100.9 1.4800698322535304 -3.070556024296584
101.25 0.07753701569438398 -3.3195728361186765
101.6 1.3848257678346734 1.9791401454581825
101.95 0.24318538017476143 0.9700148044922718
102.3 3.829572683721211 -1.9555437782668568
102.65 -0.13007169695657606 -1.057387772083711
103.0 1.6605962180715457 1.594265734475341
103.35 -2.154055738955207 -3.6061785690482875
103.7 0.10254769141072728 2.9408958537906944
104.05 2.216647192752033 -3.0451108648386125
104.4 -1.9089106261400115 3.3776843363845748
104.75 2.207435564139722 -0.6742153159661042
105.1 -1.1354781847864688 2.536373634142654
105.45 -3.167025060742904 3.9636749492016934
105.8 -0.8983988443622408 -0.994177349923568
106.15 -1.1524801477296682 0.505167656753466
106.5 3.981192914635904 -0.918477482937452
106.85 -1.9233086849361607 3.931990413267238
107.2 0.3405652490336628 -1.8837862506707186
107.55 -2.533163000154164 -2.8514683318747025
107.9 1.6935049321961655 -3.2026124230098816
108.25 3.7069279941899174 -1.6677821195546407
108.6 2.0803468858797194 -0.10859768544277326
108.95 2.34296962537653 0.2137618161098649
109.3 1.116851621914961 -3.6101602640015296
109.65 -2.778390036824778 2.654911822503844
110.0 -2.6611417930877597 0.27623239089095986
