!Created with skrf (http://scikit-rf.org).
# GHz S RI R 50.0 
!freq ReS11 ImS11
75.0 0.4518389221338577 1.3335144016539933
75.35 -1.2802626187701742 -1.546768792709813
75.7 -1.5185381638782682 -1.3711843269571138
76.05 1.9564809276717239 -0.6420943994571524
76.4 0.659853875288634 1.662391412281715
76.75 -1.1346105932115922 0.5537807482399812
77.1 1.9553569942277624 -1.9180276666611236
77.45 -0.13476268736259955 1.3769615008753777
77.8 -1.670643122458415 -1.5920545111974636
78.15 0.6037036520378942 1.0573923863598225
78.5 -1.3761416679291578 -1.5786342819921129
78.85 0.4610415689425582 -1.801094184786459
79.2 -0.0699368455375855 0.8666143756106566
79.55 0.6246047207045575 -0.2721057799006994
79.9 0.14764510848129309 1.0610420687284465
80.25 1.958656625151507 -1.4621295119159208
80.6 -0.014830944961222947 0.7233541880191101
80.95 0.5379315809179386 -0.7284989018306116
81.3 -1.863611598750123 0.16367957666690147
81.65 1.6769403262939275 0.5765564768891234
82.0 0.0774015919479707 -1.9883045720055033
82.35 0.7656910445247163 1.167414221161768
82.7 0.9581915641452836 1.7161154745845812
83.05 0.9706166879866105 1.8682869929941055
83.4 -0.2350521461324262 -1.1942027171944334
83.75 -1.816600298109921 1.298872078217141
84.1 0.7460532921353824 1.4202296356863964
84.45 0.2674667244165989 0.7334702352464415
84.8 0.29866338950962 1.9409558092152897
85.15 0.4970586640772341 -0.8560697133475546
85.5 -0.5793912893359372 0.6258146425377427
85.85 1.7049721649701755 0.11554723799046007
86.2 1.5559442104709706 -0.6014316809633682
86.55 -0.3852999107084303 1.4803564999739827
86.9 1.8434133025015633 -0.21517256272286867
87.25 -0.8058804510161455 0.03307838992042589
87.6 1.7554138710234053 1.7780715462730563
87.95 1.1326064984897464 -0.7496403278789989
88.3 -1.1311235732562892 1.3061738832152345
88.65 0.5433219969864909 -1.5441703423861797
89.0 -1.4459443376919099 -0.9559669808176832
89.35 -0.3256874299155412 1.6603229199089764
89.7 -1.2598386183903827 1.5895213943207538
90.05 0.4418462474933582 -0.3641768167275585
90.4 1.334764174990951 0.4261572716300863
90.75 1.2032090790533503 0.9133964723400707
91.1 0.10329585225095794 0.19817195884090744
91.45 0.2575417686755186 -0.15616117995488565
91.8 0.3693644735622099 -1.5737708605575418
92.15 -1.0376671242940554 -1.5541578040967172
92.5 -0.1748917043258289 1.851923333364628
92.85 0.9116881856324519 1.7743772247396805
93.2 -0.8230508157756193 -1.3755840379444955
93.55 0.37357215909916697 0.38565587218400177
93.9 1.6820340714378301 -1.0674997395313417
94.25 -0.3442288804190681 1.1487532029155791
94.6 -1.4062712960282595 -0.8752772665807158
94.95 1.9438836554392855 -1.6670112509199226
95.3 1.9565650738513507 -0.8697468490596059
95.65 1.4916709077828685 1.0300696002272183
96.0 -0.9699938204184941 -0.06859835831531136
96.35 -0.8288883932742412 1.7030909705563206
96.7 -0.0645542023839143 1.6599524890724346
97.05 -1.229967933671349 -1.23458108419897
97.4 -1.2490405382507515 0.2356602339220859
97.75 -1.7954145969065007 -1.5380075242531666
98.1 0.10605276591980628 0.013163490406594036
98.45 0.549166963140356 0.9355732404481811
98.8 1.6647449094754396 0.7125978200264491
99.15 -1.870809644938403 1.8406830902287408
99.5 -1.337266436501341 -0.09422331004609807
99.85 0.13719911186600742 1.3884902948396256
100.2 -1.643563745720301 -1.9796935033953558
100.55 -0.7633365255859044 0.31956621245905215
100.9 -0.32487737870145894 -1.4415432691044816
101.25 -1.3080497803478814 0.26996665201506787
101.6 -1.8021188081648347 1.2533217422879392
101.95 0.16965002744012292 0.2863184829945782
102.3 0.2507095127879775 1.1191706089576257
102.65 1.6890914117375053 1.3258650403842358
103.0 0.3980977826276142 -1.0371140297578227
103.35 -0.7536281576094255 -0.08562719509786465
103.7 -0.4863386654215418 1.0933632638048207
104.05 1.1085605880557599 0.0814204531495113
104.4 0.7683053866596881 -1.9770218597549731
104.75 -0.5726686479460228 -0.9503790684252729
105.1 1.7460656082781432 -0.06882974680997167
105.45 0.2385569944376038 -0.14423854347606158
105.8 -0.22467670680910157 -0.3686928258201476
106.15 -0.6839684865886975 -0.07487337041732545
106.5 -0.7697645041172958 1.2175409013872374
106.85 -0.9591631431615664 -1.4228936129961536
107.2 0.9309877412120007 -0.3080018271725793
107.55 1.191793718562486 1.5968510916748921
107.9 -1.154081004345684 -0.1137359944041485
108.25 1.6088197894756795 -1.2124081936979998
108.6 -0.24813817257427218 0.8231314285973967
108.95 0.36859622132060865 0.04307369697276586
109.3 -0.7538587035971092 -1.996314951471453
109.65 1.2439933884877448 0.07547947874007921
110.0 1.3614384477977524 1.2072902036305964
