!Created with skrf (http://scikit-rf.org).
# GHz S RI R 50.0 
!freq ReS11 ImS11
75.0 5.493325966050047 3.95094555885977
75.35 -0.4075992999149718 -5.348239395996311
75.7 3.0352382848817516 -3.4776183597221206
76.05 -4.300787280175332 4.600957245175605
76.4 0.7574754478258994 1.0971360407987825
76.75 5.620127658799234 -1.6257058057888778
77.1 -4.343529733701356 -5.335044032786324
77.45 4.905283384225283 -5.407646139307118
77.8 2.6655395604538943 -1.5322262607439505
78.15 1.7609088735944685 0.43970093918744
78.5 -3.4803611003515447 -2.2579365497586847
78.85 -1.595715948547919 -3.414666736376795
79.2 -4.926073276931854 -1.8460876010408258
79.55 -0.0624049534981328 4.850461616946576
79.9 2.0490445626119973 -4.30673116845001
80.25 -2.4762026680291567 -1.734109336649868
80.6 0.3717577643377168 -4.8182782891755895
80.95 -5.872053081697619 5.669645904312043
81.3 -0.15454109539147343 -1.5753358652884888
81.65 5.2811124991832 1.224579006660425
82.0 -2.121563193671104 -3.1345069121344746
82.35 -3.1517598872837653 2.7480944582056557
82.7 1.310280460136533 -2.7873110005809982
83.05 1.4314990584309868 -5.046040925736797
83.4 -1.2637756242403593 1.648348562797886
83.75 -2.1444663295654265 0.34320691468247544
84.1 2.517970718100841 4.256583299260292
84.45 -3.631366605384932 2.2166593989847585
84.8 5.195787635342347 4.615841971879899
85.15 -0.40327913582161656 -3.0125575258796378
85.5 4.480679029977162 3.847408536232072
85.85 -2.823503473075001 3.162491563847309
86.2 5.296249769901744 4.015919489585464
86.55 2.293256832313035 1.4737069310657436
86.9 -2.500555406973822 -0.23435215142964427
87.25 -4.086574761889212 4.798908883870426
87.6 5.713359789449278 -1.6313266933905322
87.95 -2.367102928552098 -2.3878984457290815
88.3 -2.419998824587117 -1.930615568142601
88.65 -4.878108876160427 2.053925078322566
89.0 1.7428427434332368 1.3170576395691125
89.35 1.9783333717560532 -0.4549604277931145
89.7 5.028662509149964 -3.042170565369782
90.05 2.8313893649136284 2.424988284000522
90.4 -4.739317718215232 4.294005438572256
90.75 -1.9786178673522596 -5.844301462113607
91.1 -2.905847750629682 0.38992543259449475
91.45 -2.4099779793237666 5.676952272555614
91.8 3.8423833946247896 -1.9594722548486057
92.15 2.436863167142608 0.5072862528671553
92.5 -3.4700301680135768 4.478954172747749
92.85 4.042619409042834 5.813608160143513
93.2 -1.7387633194886947 2.115474913288863
93.55 -0.02206896345564635 5.1661698973430195
93.9 -0.4752207325638893 -1.1544043433410809
94.25 -2.199288984174733 -4.504548142934841
94.6 1.993443409305733 -2.5729925690732345
94.95 2.8994067769881764 -5.753599144564754
95.3 0.5779371256426078 4.024287701080961
95.65 1.8247426326656107 1.2231485879466693
96.0 -2.1891042508533927 -1.1470046889252283
96.35 1.5153002451141093 5.1372400541557255
96.7 -0.34419855698804014 -2.2697024619337394
97.05 -4.19433376255339 3.424498346534548
97.4 3.0995374402825346 3.076992767404156
97.75 1.4007153879397873 0.7206495562655744
98.1 -2.6348255386491743 -0.2525381608446038
98.45 -2.7477873664675156 3.801359883725656
98.8 3.593976619731741 2.755912638035751
99.15 0.08269443194544879 -3.856978059806534
99.5 -3.6181192735123866 0.04651886025049423
99.85 -5.670903142460453 -2.5041607518176865
100.2 2.5713192634782898 -3.5824274422558635
100.55 -2.8201556693274443 1.4908062657372767
100.9 2.00737938654247 4.821486836265246
101.25 3.457512748388458 1.7713525660268608
101.6 1.6257678126527066 -2.9386965465837305
101.95 2.1364312922197453 3.2218153116380237
102.3 -3.832065483512025 3.9023557801107263
102.65 -0.5581199127097483 -1.6006099597772705
103.0 2.480294114114483 1.0901104747891739
103.35 2.1275209125818124 4.391878424923055
103.7 -4.295983033935743 -3.17402585914361
104.05 4.448937292409893 2.894263277114581
104.4 0.02105017191150571 5.985977163264499
104.75 -4.527082776490183 4.883756621302791
105.1 -4.5357376445513164 -4.74673825251887
105.45 3.129962999695227 2.97448422000282
105.8 -0.5554863370779444 4.503547208540848
106.15 4.392030794983407 1.082578153896256
106.5 -5.71082669283398 2.1573964988139305
106.85 -4.792295843902041 -0.7263645191221162
107.2 -2.8175375506488005 -2.807785765127114
107.55 -2.761158004197989 -0.5195191370141368
107.9 -5.031616957345541 3.049521619872826
108.25 1.6888033832827918 2.082815886065984
108.6 4.5836210498349645 3.627043549187507
108.95 -1.2926078231568106 -4.295411048075609
109.3 1.584111819442544 -0.3999183356483229
109.65 3.253858791711791 -0.6420702670875285
110.0 -2.448330888053812 -4.680056517949495
