!Created with skrf (http://scikit-rf.org).
# GHz S RI R 50.0 
!freq ReS11 ImS11
75.0 1.4359755903450018 3.280050805526699
75.35 -2.8708015958748527 -0.28813850939526753
75.7 7.835496931938284 -7.243687764073763
76.05 3.8559956901568673 -0.4752119344221901
76.4 2.8059163855180493 -4.786092142364943
76.75 1.6300310427651874 5.015303450257345
77.1 -7.853731895072074 2.9140148012018536
77.45 2.4972541693250205 -2.716378805457473
77.8 0.1351943550241237 1.2098579695394467
78.15 0.06875746348094802 -1.4840026083874638
78.5 3.0617818613234196 2.4889214628671956
78.85 -5.666772418347082 -1.7405361714513377
79.2 -7.084653806404567 -7.022230668757011
79.55 2.702334159056349 -3.1501030666259044
79.9 -7.973104359099155 0.14471170137975986
80.25 -1.9424076114013584 2.067092405431625
80.6 7.221776267256475 4.427031483938648
80.95 -4.8856939313302465 -3.5176456260831466
81.3 -4.999690009195684 -4.881669552565697
81.65 -8.075173217354834 5.804934811286471
82.0 -1.2880902335754723 -0.5487126478279065
82.35 -0.7978685319967602 -4.489669370220164
82.7 0.8419159618733429 5.097951092396654
83.05 -1.2840637947167157 3.7798170892817975
83.4 -3.620267347714095 -5.7725429726896715
83.75 -1.7653792625104332 4.0415097778088
84.1 4.88327094735123 -1.1602134989788635
84.45 -2.53743238322724 -0.3305031578380919
84.8 4.159008543649714 6.279917396314569
85.15 -2.876520380181476 -1.1723425561482415
85.5 0.2267637756483767 -4.751744352813488
85.85 2.0579205111887617 -5.6621481063109425
86.2 -5.444096575702586 2.8226865681476085
86.55 0.46634242717095775 6.914356816207222
86.9 7.829758813865706 4.229548062411079
87.25 -6.016442275139657 8.595358506548047
87.6 8.032013581979038 -8.284517373772427
87.95 -1.2924263905781184 -7.004238315903841
88.3 7.227039606747655 2.0209504432944994
88.65 1.9180095076810677 3.533298984282622
89.0 -0.03051457923774703 2.8590545830027345
89.35 -5.454612086941332 -7.444490611423819
89.7 -3.3310736690169302 7.3393681073711265
90.05 3.912699584478788 -2.162632046086226
90.4 -4.7048359613236235 -6.771879824524225
90.75 -1.167538383523926 -3.5751477382050467
91.1 -2.1782422117624805 -2.066600818025683
91.45 -7.293288884637775 1.5392152467100761
91.8 -6.220943208374639 -3.753930231906776
92.15 1.6189037130742103 -6.012693129713925
92.5 -4.8401883417333424 -3.9101838471250296
92.85 4.5708850504767415 -2.0796399205944427
93.2 2.6212288658743326 0.6299952377686513
93.55 7.704785939701736 -1.7577706463869207
93.9 -8.54759177171786 3.244165185723301
94.25 0.9287648306123175 2.8953547609884644
94.6 6.401599113967553 0.01515041457406241
94.95 3.3969880562465518 -6.953064563434166
95.3 7.8227180284730435 2.765417209414069
95.65 -4.630694322992187 -7.811063340311904
96.0 0.020373130422858488 -6.262035232087849
96.35 -0.2651732069267907 7.289228816338085
96.7 5.298237378874509 8.621281963547167
97.05 5.308396009306494 -1.5832583295868787
97.4 -5.148414121517375 2.1616608305180893
97.75 -4.378143380169288 0.06869553710088616
98.1 7.473315053754935 -7.534835792886971
98.45 -8.448933800694203 6.5821259800265715
98.8 -8.560577007452224 -0.8634242907325163
99.15 6.437595647226396 -7.386650057663556
99.5 -6.010619213942089 -7.720034985209513
99.85 -2.3447503315664355 5.201144468173558
100.2 -5.900383312460321 -4.64490178410938
100.55 7.4044945567239795 -6.420677568073534
100.9 -0.32620565830157 2.86598662514173
101.25 -5.351801459632344 -5.160682118422281
101.6 -4.790976314228142 5.018238872296701
101.95 -4.9419368716962255 6.499455131414875
102.3 -6.798897076131255 -2.7130207476834967
102.65 8.097811410347104 5.656686357975893
103.0 1.5437238491052119 -7.567227997147544
103.35 -0.6547194916226884 0.8741451998074399
103.7 1.281496588290627 7.599626198865361
104.05 -7.113167587052692 -3.080012632492772
104.4 2.2125624275646016 5.886573498451551
104.75 3.975105544255549 3.300880220277656
105.1 -1.145553440026952 2.4436631890092286
105.45 7.413990940896624 4.105027970433076
105.8 3.336247628638395 7.774456319379329
106.15 -6.423327896561271 -3.9368231658784287
106.5 -2.359411237968339 7.915507049606834
106.85 7.6883687897904 5.287462677245804
107.2 -8.047426671845688 2.2088929829755832
107.55 2.328084054517302 8.43965500771094
107.9 -6.9199411992596636 4.537183256991007
108.25 5.340082170371019 -7.041075902313836
108.6 0.6309451135292508 0.2793467407334629
108.95 -5.311868635458499 -8.211731939809095
109.3 -0.89524206306799 0.5004748532557766
109.65 6.042239388669835 0.8333557718487128
110.0 -2.180359527554894 -2.3665325561853954
