!Created with skrf (http://scikit-rf.org).
# GHz S RI R 50.0 
!freq ReS11 ImS11
75.0 0.05150169934406357 0.018194239315557414
75.35 -0.14151523604852745 -0.07298858085853799
75.7 0.4920580920310391 0.0051214467377664885
76.05 0.038817876609812396 -0.4010943964913576
76.4 0.27188973258376326 0.690898229441143
76.75 -0.9303982919511782 0.8806728512868152
77.1 0.10332324770609636 0.8978931219252695
77.45 0.24905690798228086 -0.05598732780217208
77.8 0.9585593763475766 0.2053479992598799
78.15 0.4084084177569651 0.40331136808052603
78.5 -0.03832170347366026 0.8169628058704235
78.85 0.9339519179099047 0.9505342553524638
79.2 0.027918455122137864 0.6063025223229634
79.55 0.6118373983640937 0.08117387956096489
79.9 -0.08865049292438587 -0.6683558902661455
80.25 0.5948294294874983 -0.5206368789390139
80.6 -0.007795710865210248 0.7485493385830324
80.95 -0.17314596873383414 -0.3905949845224248
81.3 0.9605474772357341 -0.8530583717721709
81.65 0.7588160421986632 0.6012051632709128
82.0 -0.12408936699158946 -0.7032721792416652
82.35 -0.7682522728049879 -0.044687069541204716
82.7 -0.14489087216671925 -0.6757178514077027
83.05 0.25720244743263043 -0.5167925224052952
83.4 0.12697307500206523 0.3241362532106997
83.75 0.23050201227922829 -0.4226779425063747
84.1 0.016941339020019708 0.8969690335247897
84.45 -0.9553267319616208 0.9356810427545352
84.8 -0.7297503901092623 -0.5614434671399131
85.15 0.033797733314777645 0.4964009993289298
85.5 -0.8747475635623765 0.9442866311005285
85.85 0.6685259014745903 0.3363737790758674
86.2 -0.3737623096918541 -0.5168942016442395
86.55 -0.8621709288988308 0.9682139980056288
86.9 0.2910800442302828 -0.040149571886340274
87.25 0.48990955629034816 -0.21757320301502925
87.6 -0.3581956757144935 0.5408949461732033
87.95 -0.026400279420467188 -0.10819685802821555
88.3 -0.4585825288815928 0.9752090500599602
88.65 0.29667063565811813 -0.17198276846732785
89.0 -0.20656191540150948 0.14986091253098177
89.35 -0.6223555470520641 -0.11574508642780734
89.7 0.23277404330616314 -0.7011799484332197
90.05 0.353985252020105 0.29595267037277684
90.4 -0.4875426770203828 -0.8689019194264038
90.75 0.5250496275087317 -0.02945570338843928
91.1 0.8084476951467245 -0.5433494372037877
91.45 0.7248864543466087 -0.09023277061554613
91.8 -0.19703272755694545 0.9460415834922882
92.15 -0.15720998623665938 -0.4863989659659047
92.5 0.8269446347470573 -0.8060533542418218
92.85 -0.4047406443473003 0.3334788337928576
93.2 -0.7722236290936313 -0.6535287076271701
93.55 0.2238479217582947 -0.41574752784587554
93.9 0.2659029253223424 0.08014275022713302
94.25 -0.8605495749697236 0.9151268062872118
94.6 -0.49023176008453273 0.3024760836663678
94.95 -0.9400087506327064 -0.6374451818890505
95.3 -0.6455345030426907 0.958385408679747
95.65 0.4740373135907294 -0.8635338899333425
96.0 0.9052425380421378 -0.40358979059828703
96.35 0.1396564029475027 -0.9433820072853965
96.7 -0.7362251408264193 0.018687279070471297
97.05 0.4204314365939956 -0.5118637510688728
97.4 0.05875404674936435 0.4075984854150201
97.75 -0.054731024421331265 -0.42409707404397734
98.1 0.21745090585046722 0.2683225953999735
98.45 0.2421264909534906 0.5338659671879886
98.8 0.893727662006877 0.6576302600911208
99.15 -0.7906391637329855 0.7651124519463426
99.5 0.5020091093080001 -0.42489307312459035
99.85 0.9439039406649969 0.8020861620014392
100.2 0.16156894562707458 -0.1897145850962274
100.55 -0.6707006008218377 0.8478715473492937
100.9 0.17916114449636855 0.0751048814722679
101.25 -0.09293013645708892 0.7167783885036632
101.6 0.9722794838717963 0.02620274780348164
101.95 0.35158479721231695 -0.5993104448830453
102.3 0.8419671763345988 0.8109348301034258
102.65 -0.9088435906699996 0.7692777487892022
103.0 0.9817120975554592 -0.45706490624062823
103.35 0.9828690065783403 -0.14282359478255402
103.7 -0.8535132311422975 -0.6262920676072015
104.05 0.2705366354132519 -0.9313932561138554
104.4 0.6490819612377685 0.5672081325902971
104.75 -0.2608147003670156 -0.092118831634177
105.1 -0.44569464522558433 0.2190540178515865
105.45 -0.4791917155098133 0.9502573785883568
105.8 -0.9050131847278626 -0.6051370681518693
106.15 0.8256729166510024 -0.25917153271727855
106.5 -0.4065382143591765 -0.40865598115047264
106.85 0.4111288851188395 -0.07305359789823651
107.2 0.880562405763853 -0.5949651787281556
107.55 -0.6957246386728015 0.2924429212890267
107.9 0.809857125747252 0.45882037989434643
108.25 0.7852606009750729 -0.5641148261368956
108.6 -0.12650394220170402 0.13245072218162313
108.95 -0.23731763136536177 -0.8027206520214092
109.3 -0.38706310762823004 -0.6076681426071431
109.65 0.5105199941105392 0.5238020470462068
110.0 -0.9888384657273381 0.9753041983498087
