!Created with skrf (http://scikit-rf.org).
# GHz S RI R 50.0 
!freq ReS11 ImS11
75.0 4.339662595418981 -4.833631953362576
75.35 -0.4665797100063518 -2.311112356331917
75.7 3.6075200606272695 -2.1626080940026284
76.05 -0.7018206989097231 0.23255683506442026
76.4 -4.895946038769356 1.4952521867083102
76.75 -1.4286259048035799 3.8709406215621875
77.1 -1.8453207290335827 4.2841550538852315
77.45 3.739694339523135 0.1308699416714798
77.8 -4.344973429545381 -4.95027954162993
78.15 2.496268966277678 -4.074207366249167
78.5 -4.838158250002382 -2.487348819378626
78.85 -2.418267614053633 -4.205666729286617
79.2 0.47719301627193067 1.7215617595947719
79.55 2.793440754241633 1.569044149630724
79.9 2.2910416047807014 4.0496260375084585
80.25 2.936052069561251 -4.792957477724347
80.6 0.15725891398580383 3.3422467749061924
80.95 1.1338774561738874 -4.717064075475199
81.3 -3.5508026165918616 -1.824824203592288
81.65 2.977524713700869 1.2062765363870442
82.0 -0.207465843709842 4.828744097053088
82.35 0.1675970668660054 -3.4553213568245047
82.7 4.512264165390904 -3.0539452239005027
83.05 -2.701660694173703 -1.7463160409977752
83.4 -0.026172546402107866 2.193450285775583
83.75 0.5866491949542385 -1.8176884924772008
84.1 3.987337479039911 0.8873511193237704
84.45 -0.2784564815259516 -4.8396509050070105
84.8 1.3375019556668588 0.19266200856844162
85.15 4.707400936100546 -3.077791411767039
85.5 -4.273341962533768 3.0710716016241433
85.85 -3.3369448401959865 -4.088634448621975
86.2 -3.5832501973552366 -3.229527865226377
86.55 1.5887682604001419 2.3842898142734748
86.9 3.856038366922826 -3.6866174496983053
87.25 -0.5905357709611436 1.0988593000737668
87.6 -4.486686210518003 -2.5520100568675375
87.95 3.576936466342903 3.3476858991869705
88.3 1.813575313698843 -4.459584189432459
88.65 0.4603912626442952 -1.9355118834329388
89.0 -1.0026178374010797 0.9736884588480821
89.35 3.0704332421925806 4.100513358915649
89.7 0.8784531286179764 -4.054459026062881
90.05 2.3316633985190585 -1.9301676539829093
90.4 2.674747304132209 -3.775270886162856
90.75 1.9731596113114291 -2.995431328139345
91.1 2.580736537349737 -2.089460117857426
91.45 4.357745658311988 2.08929660951343
91.8 4.6052325111543535 4.20786938323654
92.15 2.4997818416389386 -3.3816309077979865
92.5 -0.47212522770796683 -1.221244694600736
92.85 0.46627281058087 2.4984010612682184
93.2 0.3948261953258936 -3.089012641229334
93.55 -4.2323182938945045 -0.5232977987604925
93.9 1.2150849526702068 -0.7057748676696451
94.25 -4.539352076048772 2.709628023329814
94.6 -3.9249583025659462 0.10647668243233599
94.95 -4.421443017847064 -3.153671320961575
95.3 -3.172624756627531 3.1084552231760854
95.65 -0.2384353393672567 -3.0301323453062756
96.0 0.8887667874643479 -0.832104434398625
96.35 -0.014736689004042347 -4.572959717906487
96.7 1.106815751481186 -4.317811364610797
97.05 -1.3443578702739045 -1.2872218074167585
97.4 -4.4016130651825645 3.391267278666077
97.75 3.2838329602481267 -2.0855562542107133
98.1 3.0348283875695357 2.6257791193142666
98.45 -2.2504588095925824 0.2892680947110682
98.8 -0.7914281274494261 -0.10656416815617908
99.15 0.26493499748046156 3.5479340065967
99.5 -3.3541548068721747 4.214656284829371
99.85 -1.1222798182101656 -3.5189461062312857
100.2 3.290154366042275 1.4299582935501132
100.55 0.3181514097831073 3.9538973330944502
100.9 2.946210811018269 4.155628934788047
101.25 -4.053812386076343 0.7228687343278672
101.6 -4.952960851922651 4.421696207679703
101.95 -2.428966202701722 4.037433592541813
102.3 3.931712981485387 -4.691148833013317
102.65 -2.3472851346756296 4.728204263202364
103.0 4.722950667100923 1.2909298935800562
103.35 2.392873533986201 1.4128121163281904
103.7 1.445226669400208 -0.8975287694151135
104.05 -2.0817381131909265 -0.48379840469394364
104.4 2.9391405197822884 4.8991675589128905
104.75 3.7110262640438183 0.2751601444088525
105.1 -4.544994514610946 -1.7902762077919099
105.45 -1.836775833938462 1.816612467396923
105.8 -0.32665530271396515 -1.7923835342106342
106.15 -4.722041554718701 -1.543199545641436
106.5 -2.5836022129537706 3.4798096016814117
106.85 -0.8090884413114907 2.8463560436797564
107.2 2.92523912786145 0.9653639905338363
107.55 0.41283569536414433 1.5281372919097835
107.9 -4.579763893130573 -4.637168073277101
108.25 4.949849263837539 4.707382061509815
108.6 -2.6756286595562075 -1.706016285031049
108.95 -1.1499514577070236 1.8967057732895942
109.3 -2.5893896245048587 1.9681357514224695
109.65 1.6688803800462404 3.9352026233903628
110.0 -0.7915367594792111 -1.5411299653095
