!Created with skrf (http://scikit-rf.org).
# GHz S RI R 50.0 
!freq ReS11 ImS11
75.0 4.187376109597272 -1.0507575298163834
75.35 5.191363800582492 0.12025102759990514
75.7 -2.6905481487380576 -2.4701780807256917
76.05 -6.240733130071579 2.071948061497852
76.4 2.6749566447262216 -0.6737865731643351
76.75 -4.32575775553271 4.511744204407617
77.1 -4.418819796007214 -3.9068698970199502
77.45 1.0880111228207028 -2.246158771821122
77.8 -4.148353959735006 -1.8880952878880912
78.15 4.794607840219544 5.039920832776896
78.5 -1.7667603501430216 -2.755428968407942
78.85 5.022082483407123 -0.552851463310958
79.2 4.666015912511588 0.6728697478475085
79.55 -5.214913614675029 -4.53863748243564
79.9 4.286762443233739 3.8848589219562895
80.25 3.864759501102821 -3.0931387969603037
80.6 -4.224708491913333 6.126238775466054
80.95 6.067348294288463 5.6479580672394025
81.3 6.007463804265211 0.2121085339262352
81.65 0.6890963459049508 3.1853907255337077
82.0 0.6864646556523486 2.9132700986247118
82.35 1.3768233444446194 -2.147732020346465
82.7 -4.871943544722152 4.043722976452061
83.05 4.328297034102743 -3.001213847829021
83.4 -2.4186842759154823 3.198251473128289
83.75 2.5842235911883016 4.960740365634994
84.1 5.994080900917316 4.004959217533448
84.45 -0.906512724631301 1.3393524969594095
84.8 -4.237673207906971 0.27701992404033104
85.15 -6.934435166393969 -4.054856737309306
85.5 4.604613072806008 0.523924043336605
85.85 4.936857515867376 -6.3223627872653125
86.2 3.6810853086465913 -1.9009290755907038
86.55 -1.792523627168367 -1.884341386937545
86.9 4.2695543018259485 5.652387539708022
87.25 -0.1998774520374318 -2.4633098512297877
87.6 -6.502147815973672 2.4158955940115625
87.95 -1.9102359753805123 -2.5610471071780108
88.3 -4.696478993497229 4.5752014571563695
88.65 6.345144437945184 -2.118142829513884
89.0 2.3314603444550546 5.369499808593758
89.35 -3.842209113180785 1.8491072887190825
89.7 5.829784671273708 4.426418466123194
90.05 -5.354912959704366 -2.174048528741759
90.4 5.7031941460772 6.945971004426844
90.75 1.2215701103094239 4.226508614032445
91.1 0.6850029676127525 -0.1712404994763852
91.45 -6.868726186314236 -6.656968696651447
91.8 6.165566264407914 -4.916260787977384
92.15 -1.276920742561342 -0.9093964738719
92.5 0.6421034429780477 0.26496343855233406
92.85 -1.1496534865828725 -3.710291917823107
93.2 6.022709783896655 4.653701817388094
93.55 1.0708497677382398 -1.0331165033013818
93.9 3.9267480730339224 -6.612398386072135
94.25 -5.9879658985840685 6.750806747262892
94.6 -3.405742989951986 4.594562406120584
94.95 -6.033383967226685 1.5857665922913595
95.3 1.8254387880747682 -4.290392906343697
95.65 4.055987688637501 -3.0182689857002116
96.0 -5.174394801325337 4.141155105074944
96.35 -4.982030086520774 1.2398990234799314
96.7 -5.419567720032843 3.445833015772819
97.05 -4.293078187024221 -6.9530396154580965
97.4 3.2026525072302454 1.7948127480122837
97.75 6.497824537851467 6.072125349805164
98.1 -0.32065022918901587 2.4233991145151705
98.45 0.3908476913667902 -2.360820113320764
98.8 0.8339445729378325 -2.977447229882504
99.15 2.2888449790409426 2.4930689985456196
99.5 1.556837252315018 -1.4316821959491575
99.85 -6.335714069834333 2.603223492222635
100.2 3.0005205358316926 2.630064832499058
100.55 0.7580209094183015 -3.433949648349741
100.9 3.722821158966274 -3.5591111195760075
101.25 5.1486242286753745 6.169596608980193
101.6 -0.48322068963093057 -1.2655252895166305
101.95 6.462760769265345 -0.025952904177056757
102.3 -4.92893178136714 4.462917592298361
102.65 -1.0515770962192366 -0.40203309246085683
103.0 1.8440277200664674 5.637238375668458
103.35 -5.938578864399488 -0.7248090065101094
103.7 -4.824343262577765 -6.471152327838097
104.05 6.7740213105910545 -5.006729331084688
104.4 1.4383560405037523 -2.352729648760275
104.75 5.2074482487516915 4.9290460038998525
105.1 -6.574594655909065 -2.425431877584405
105.45 -6.153391002203726 3.9153178707700427
105.8 0.6917092354011491 1.890298364582767
106.15 -2.3779385490031872 4.333727718308168
106.5 -3.281978319750568 -2.5348516708699433
106.85 -0.8958208177467177 1.4920201314258563
107.2 5.263189245458756 -6.840331548971122
107.55 -4.543840545269522 -2.706939926165291
107.9 -3.8471144582105277 1.6366851669356042
108.25 2.6766546080231013 1.5690447901286082
108.6 5.613003207788268 4.109635982943808
108.95 -1.9187095645381547 -1.463987972188324
109.3 6.699608558687405 -1.69381453786159
109.65 6.95997167972244 -4.50781024181645
110.0 3.869722653110043 -1.3270932906979458
