!Created with skrf (http://scikit-rf.org).
# GHz S RI R 50.0 
!freq ReS11 ImS11
75.0 -7.835438363235131 -0.8289245380900923
75.35 0.004749544151856355 2.90808166173713
75.7 -2.5478741103991105 6.623840612447056
76.05 -2.183184729371007 5.687386302779107
76.4 -6.479185905240666 0.9391695840181331
76.75 1.8085097910345294 -7.649554328225856
77.1 -1.0276248216183461 1.9965332067156076
77.45 4.686236019965419 -7.150426863956223
77.8 7.563236874662749 -6.631639357131453
78.15 -0.22542158212989705 7.466497075206945
78.5 -3.3424029076390607 3.109229293833007
78.85 5.88364303739014 -0.12104412623406446
79.2 -4.901095386768672 6.664998412610471
79.55 -5.313109797100395 6.544547843137076
79.9 1.753927600046925 2.972005409448009
80.25 -2.2238947945552834 -0.44013873352035837
80.6 -4.808906853248599 7.847093410432766
80.95 -4.487780493470439 -7.36889119446486
81.3 -2.505213530712407 2.9191683390825887
81.65 5.0116634549141335 0.27464594149907917
82.0 4.898850068023444 -6.342633921245239
82.35 -4.250963236021292 5.812848949700495
82.7 -7.91147874855111 -2.3353456602080893
83.05 4.498673763011526 5.255883377458488
83.4 5.159943514899702 -4.923081679121436
83.75 0.7051200202540446 2.6948577701304934
84.1 0.9865962972881412 -2.173365121631061
84.45 -7.039089478495708 -7.527975184589286
84.8 -2.83583099524469 -4.069840902561815
85.15 7.947551239059612 4.990172164464074
85.5 0.09248761562857233 6.569530443910535
85.85 2.3235176754672953 -5.781680841302494
86.2 -3.3201129091038233 -7.48872686968352
86.55 -4.804993025610054 -7.288791522348832
86.9 0.605032468637523 6.9520641729079955
87.25 5.175493099569463 0.3642206797339327
87.6 2.4449002533075177 -7.805605308308312
87.95 3.901709371951677 -3.248249946427805
88.3 -1.562601658559835 -2.7282032211628433
88.65 -3.7110321623920424 0.9509444186511136
89.0 -2.0474392581864773 -2.307755205912793
89.35 -0.6053682925636448 0.6009546023974952
89.7 2.9630312136175654 2.7347197685090237
90.05 6.041538139377153 -6.474004365102884
90.4 -7.965749121787292 -0.21785389662412058
90.75 2.3886173004366285 -2.5579729550346837
91.1 -5.784351588611633 6.920520813605714
91.45 6.915809141343015 -3.659945055523128
91.8 -2.497004159124442 0.14052349950230614
92.15 0.297035279087444 -3.957735977324722
92.5 2.8693686234308995 -7.174186044940955
92.85 -5.546314263573057 1.856537492648977
93.2 -2.1146461148384343 4.241455704722261
93.55 6.533840841433925 -0.9620154534426231
93.9 -0.8974879232896562 4.321699992605019
94.25 -6.075479447874184 -7.067225128433185
94.6 4.391301398793837 -6.3466239547619345
94.95 4.391480813134583 5.231178436694277
95.3 5.184804276266998 4.697366982651449
95.65 -5.06989937760742 -1.2749956360679242
96.0 3.4250309520241533 -5.646477235409419
96.35 4.246769821485559 3.3984425283034785
96.7 0.6688773870260736 3.3706846200346003
97.05 -0.9238507992523779 5.9255230542580275
97.4 4.398948377199909 1.625824377754375
97.75 1.9394467545334635 7.235514878731811
98.1 4.598924934198406 1.6796523030712969
98.45 5.235068276597245 -6.052265837045432
98.8 6.6958031564047555 -4.073554729092805
99.15 -2.29838046353977 5.603109451643114
99.5 -5.999427878052085 1.1708326998604583
99.85 -5.95257415894331 -5.0474326119764505
100.2 -5.617228837181786 -5.804984471503992
100.55 -0.7933445691448391 -6.228453718542006
100.9 4.7966088380217204 5.552160598118753
101.25 -3.196046264482364 -1.7961464106813185
101.6 -7.644864326136949 2.78380234143423
101.95 1.726237205098558 0.7378282714630551
102.3 5.333470488638904 -3.4026382823504466
102.65 -5.396959390163575 7.8980136449524725
103.0 -5.925559915953309 4.061607810417829
103.35 6.149248074616409 1.1387041688435051
103.7 -1.807039875553663 -0.6488928858130265
104.05 4.96260319317218 -3.9801250300597886
104.4 -3.141430358707675 -6.755224132249671
104.75 1.4956478340030355 -5.943604282152764
105.1 -4.053094739781457 -7.107586671833406
105.45 2.9382796287602115 -4.161871814492461
105.8 1.3718800874905792 -5.263804572331166
106.15 3.533684691148105 -5.829143843442072
106.5 -5.0316165965945565 2.140097376399819
106.85 7.997801354621378 -3.5142599889395125
107.2 -2.571377646393584 -7.608693883642022
107.55 0.9877913846816959 4.519157208211356
107.9 -0.8782309796015042 5.646727244145364
108.25 -7.787437514229373 1.0404701235916978
108.6 6.205300401873387 -5.06514311774025
108.95 2.3638107517700995 2.2638849212025836
109.3 0.19134241737910251 -6.1920716121851935
109.65 -5.496735408802937 4.550658942780206
110.0 -2.6135935530192054 -4.674604694832874
